Circuit: * C:\Users\rohan\OneDrive - International Institute of Information Technology (1)\Sem5\AIC\AIC_proj\AIC_project\analog project\small signal\small signal.asc

Ignoring BSIM parameter XL
Ignoring BSIM parameter XW
Ignoring BSIM parameter XL
Ignoring BSIM parameter XW
Warning: Pd = 0 is less than W.
Warning: Ps = 0 is less than W.
Warning: Pd = 0 is less than W.
Warning: Ps = 0 is less than W.
Warning: Pd = 0 is less than W.
Warning: Ps = 0 is less than W.
Warning: Pd = 0 is less than W.
Warning: Ps = 0 is less than W.
Warning: Pd = 0 is less than W.
Warning: Ps = 0 is less than W.
Direct Newton iteration for .op point succeeded.
Semiconductor Device Operating Points:
                        --- BSIM3 MOSFETS ---
Name:        m4          m3          m6          m8          m7
Model:      cmosp       cmosp       cmosp       cmosn       cmosn
Id:       -1.29e-05   -1.29e-05   -1.77e-04    2.70e-05    1.77e-04
Vgs:      -6.19e-01   -6.19e-01   -6.01e-01    5.99e-01    5.50e-01
Vds:      -6.01e-01   -6.19e-01   -9.00e-01    5.99e-01    9.00e-01
Vbs:       0.00e+00    0.00e+00    0.00e+00    0.00e+00    0.00e+00
Vth:      -3.99e-01   -3.99e-01   -4.53e-01    4.66e-01    4.64e-01
Vdsat:    -1.81e-01   -1.81e-01   -1.37e-01    1.17e-01    8.86e-02
Gm:        1.11e-04    1.11e-04    2.03e-03    3.69e-04    3.02e-03
Gds:       2.12e-07    2.09e-07    2.25e-05    4.19e-06    3.12e-05
Gmb        3.56e-05    3.56e-05    6.39e-04    1.02e-04    8.45e-04
Cbd:       0.00e+00    0.00e+00    0.00e+00    0.00e+00    0.00e+00
Cbs:       0.00e+00    0.00e+00    0.00e+00    0.00e+00    0.00e+00
Cgsov:     4.11e-14    4.11e-14    6.32e-14    4.25e-15    5.66e-14
Cgdov:     4.11e-14    4.11e-14    6.32e-14    4.25e-15    5.66e-14
Cgbov:     6.94e-18    6.94e-18    4.39e-19    4.69e-19    4.69e-19
dQgdVgb:   3.12e-12    3.12e-12    4.31e-13    2.79e-14    3.61e-13
dQgdVdb:  -4.32e-14   -4.30e-14   -6.32e-14   -4.15e-15   -5.54e-14
dQgdVsb:  -2.94e-12   -2.94e-12   -3.55e-13   -2.23e-14   -2.82e-13
dQddVgb:  -1.31e-12   -1.31e-12   -1.84e-13   -1.19e-14   -1.52e-13
dQddVdb:   4.28e-14    4.27e-14    6.32e-14    4.19e-15    5.59e-14
dQddVsb:   1.68e-12    1.68e-12    1.60e-13    1.01e-14    1.26e-13
dQbdVgb:  -5.05e-13   -5.05e-13   -6.28e-14   -4.05e-15   -5.57e-14
dQbdVdb:  -1.34e-15   -1.21e-15   -2.06e-17    8.40e-18    1.50e-16
dQbdVsb:  -4.57e-13   -4.57e-13   -2.81e-14   -2.16e-15   -2.74e-14

Name:        m5          m2          m1
Model:      cmosn       cmosn       cmosn
Id:        2.59e-05    1.29e-05    1.29e-05
Vgs:       5.99e-01    5.51e-01    5.51e-01
Vds:       3.49e-01    8.49e-01    8.32e-01
Vbs:       0.00e+00   -3.49e-01   -3.49e-01
Vth:       4.68e-01    4.92e-01    4.92e-01
Vdsat:     1.16e-01    7.61e-02    7.61e-02
Gm:        3.57e-04    2.51e-04    2.51e-04
Gds:       5.20e-06    4.69e-07    4.70e-07
Gmb        9.90e-05    6.33e-05    6.33e-05
Cbd:       0.00e+00    0.00e+00    0.00e+00
Cbs:       0.00e+00    0.00e+00    0.00e+00
Cgsov:     4.25e-15    8.50e-14    8.50e-14
Cgdov:     4.25e-15    8.50e-14    8.50e-14
Cgbov:     4.69e-19    5.97e-18    5.97e-18
dQgdVgb:   2.79e-14    4.39e-12    4.39e-12
dQgdVdb:  -4.17e-15   -8.29e-14   -8.30e-14
dQgdVsb:  -2.23e-14   -3.83e-12   -3.83e-12
dQddVgb:  -1.20e-14   -1.77e-12   -1.77e-12
dQddVdb:   4.21e-15    8.38e-14    8.39e-14
dQddVsb:   1.01e-14    2.15e-12    2.15e-12
dQbdVgb:  -4.02e-15   -8.43e-13   -8.43e-13
dQbdVdb:  -1.23e-17    2.08e-16    2.00e-16
dQbdVsb:  -2.17e-15   -5.51e-13   -5.51e-13



Date: Mon Nov 28 21:42:40 2022
Total elapsed time: 0.048 seconds.

tnom = 27
temp = 27
method = trap
totiter = 7
traniter = 0
tranpoints = 0
accept = 0
rejected = 0
matrix size = 15
fillins = 2
solver = Normal
Matrix Compiler1: 980 bytes object code size
Matrix Compiler2: 1.23 KB object code size
