Circuit: * C:\Users\aditya gupta\Desktop\analog project\last y.asc

Ignoring BSIM parameter XL
Ignoring BSIM parameter XW
Ignoring BSIM parameter XL
Ignoring BSIM parameter XW
Warning: Pd = 0 is less than W.
Warning: Ps = 0 is less than W.
Warning: Pd = 0 is less than W.
Warning: Ps = 0 is less than W.
Warning: Pd = 0 is less than W.
Warning: Ps = 0 is less than W.
Warning: Pd = 0 is less than W.
Warning: Ps = 0 is less than W.
Direct Newton iteration failed to find .op point.  (Use ".option noopiter" to skip.)
Starting Gmin stepping
Gmin = 10
Gmin = 1.07374
Gmin = 0.115292
Gmin = 0.0123794
Gmin = 0.00132923
Gmin = 0.000142725
Gmin = 1.5325e-005
Gmin = 1.6455e-006
Gmin = 1.76685e-007
Gmin = 1.89714e-008
Gmin = 2.03704e-009
Gmin = 2.18725e-010
Gmin = 2.34854e-011
Gmin = 2.52173e-012
Gmin = 2.70769e-013
Gmin = 0
Gmin stepping succeeded in finding the operating point.

Semiconductor Device Operating Points:
                        --- BSIM3 MOSFETS ---
Name:        m5          m4          m3          m2          m1
Model:      cmosp       cmosp       cmosp       cmosp       cmosn
Id:       -4.90e-05   -9.78e-12   -9.78e-12   -4.90e-05    5.00e-05
Vgs:      -5.39e-01   -9.55e-01   -4.16e-01   -4.16e-01    5.00e+07
Vds:      -5.39e-01   -2.78e-10   -6.48e-09   -4.16e-01    5.00e+07
Vbs:       4.16e-01    6.48e-09    0.00e+00    0.00e+00    0.00e+00
Vth:      -5.52e-01   -4.28e-01   -4.28e-01   -4.28e-01    3.82e-01
Vdsat:    -5.45e-02   -4.12e-01   -5.16e-02   -5.16e-02    1.00e+09
Gm:        1.08e-03    1.65e-11    1.70e-10    1.06e-03   -6.99e-19
Gds:       5.86e-06    3.51e-02    1.51e-03    6.49e-06    6.99e-19
Gmb        2.99e-04    7.07e-12    5.58e-11    3.39e-04   -6.73e-16
Cbd:       0.00e+00    0.00e+00    0.00e+00    0.00e+00    0.00e+00
Cbs:       0.00e+00    0.00e+00    0.00e+00    0.00e+00    0.00e+00
Cgsov:     6.32e-13    6.32e-13    6.32e-13    6.32e-13    1.41e-15
Cgdov:     6.32e-13    6.32e-13    6.32e-13    6.32e-13    1.41e-15
Cgbov:     9.39e-19    9.39e-19    9.39e-19    9.39e-19    5.00e-13
dQgdVgb:   4.82e-12    9.21e-12    5.71e-12    5.10e-12    6.61e-09
dQgdVdb:  -6.32e-13   -4.33e-12   -2.07e-12   -6.33e-13   -1.41e-15
dQgdVsb:  -3.19e-12   -5.07e-12   -2.67e-12   -3.29e-12   -1.88e-02
dQddVgb:  -1.72e-12   -4.59e-12   -2.31e-12   -1.75e-12   -2.81e-09
dQddVdb:   6.32e-13    4.00e-12    1.94e-12    6.33e-13    1.41e-15
dQddVsb:   1.39e-12    1.88e-12    9.36e-13    1.50e-12    3.69e-09
dQbdVgb:  -1.39e-12   -3.10e-14   -1.09e-12   -1.59e-12   -9.97e-10
dQbdVdb:  -1.92e-16   -3.03e-12   -1.18e-12   -4.79e-16   -1.42e-26
dQbdVsb:  -2.21e-13    6.78e-13    1.62e-13   -3.41e-13    1.88e-02

Name:        m16         m14         m13         m12         m11
Model:      cmosn       cmosn       cmosn       cmosn       cmosn
Id:        1.54e-12   -1.96e-12    7.02e-12   -2.47e-13    9.78e-12
Vgs:       5.00e+07    4.54e-02    4.54e-02    1.55e-01    6.48e-02
Vds:       8.55e-01   -9.44e-03    8.06e-02   -1.69e-04    8.65e-01
Vbs:       0.00e+00   -8.55e-01   -8.55e-01   -8.45e-01   -9.35e-01
Vth:       4.64e-01    6.90e-01    6.91e-01    6.90e-01    7.03e-01
Vdsat:     1.00e+09    4.07e-02    4.07e-02    4.07e-02    4.10e-02
Gm:       -1.35e-20    8.29e-11    1.79e-10    3.25e-11    2.36e-10
Gds:       7.87e-13    2.56e-10    8.84e-12    6.49e-09    2.58e-12
Gmb        1.11e-20    2.16e-11    4.62e-11    8.24e-12    5.92e-11
Cbd:       0.00e+00    0.00e+00    0.00e+00    0.00e+00    0.00e+00
Cbs:       0.00e+00    0.00e+00    0.00e+00    0.00e+00    0.00e+00
Cgsov:     1.42e-14    8.50e-13    8.50e-13    8.50e-13    8.50e-13
Cgdov:     1.42e-14    8.50e-13    8.50e-13    8.50e-13    8.50e-13
Cgbov:     4.69e-19    4.69e-19    4.69e-19    4.69e-19    4.69e-19
dQgdVgb:   1.07e-13    2.71e-12    2.71e-12    2.69e-12    2.69e-12
dQgdVdb:  -5.32e-14   -8.50e-13   -8.50e-13   -8.50e-13   -8.50e-13
dQgdVsb:  -5.38e-14   -8.50e-13   -8.50e-13   -8.50e-13   -8.50e-13
dQddVgb:  -5.36e-14   -8.50e-13   -8.50e-13   -8.50e-13   -8.50e-13
dQddVdb:   5.26e-14    8.50e-13    8.50e-13    8.50e-13    8.50e-13
dQddVsb:   6.14e-15    1.32e-20    1.09e-20    1.47e-19    1.20e-20
dQbdVgb:  -4.69e-19   -1.01e-12   -1.01e-12   -9.86e-13   -9.86e-13
dQbdVdb:  -3.79e-14   -5.06e-21   -1.32e-22   -2.40e-19    1.33e-23
dQbdVsb:   2.73e-14    3.57e-17    3.58e-17    3.49e-17    3.50e-17



Date: Mon Nov 29 14:17:08 2021
Total elapsed time: 0.060 seconds.

tnom = 27
temp = 27
method = trap
totiter = 470
traniter = 0
tranpoints = 0
accept = 0
rejected = 0
matrix size = 17
fillins = 0
solver = Normal
Matrix Compiler1: 768 bytes object code size
Matrix Compiler2: 1.47 KB object code size  0.2/0.2/[0.1]

